# vsim -do "run -all; quit -f" -c -l log/tb_vrf_axil_demo.log work.tb_vrf_axil_demo "+log_dir=log" 
# Start time: 20:25:50 on Sep 15,2026
# ** Note: (vsim-8009) Loading existing optimized design _opt
# //  ModelSim SE-64 2020.4 Oct 13 2020
# //
# //  Copyright 1991-2020 Mentor Graphics Corporation
# //  All Rights Reserved.
# //
# //  ModelSim SE-64 and its associated documentation contain trade
# //  secrets and commercial or financial information that are the property of
# //  Mentor Graphics Corporation and are privileged, confidential,
# //  and exempt from disclosure under the Freedom of Information Act,
# //  5 U.S.C. Section 552. Furthermore, this information
# //  is prohibited from disclosure under the Trade Secrets Act,
# //  18 U.S.C. Section 1905.
# //
# Loading sv_std.std
# Loading work.vrf_axil_mst_if(fast)
# Loading work.vrf_axil_slv_if(fast)
# Loading work.vrf_axil_mnt_if(fast)
# Loading work.vrf_axil_pkg(fast)
# Loading work.DVP2axi_stream_v_unit(fast)
# Loading work.tb_vrf_axil_demo(fast)
# ** Warning: (vsim-8441) Clocking block output mst_vif.cb.bready is not legal in this
# or another expression.
#    Time: 0 ps  Iteration: 0  Region: /vrf_axil_pkg::vrf_axil_bringup #(32, 32, 4) File: bench/lib/Pkg/../Chk/vrf_axil_bringup.svh Line: 124
# ** Warning: (vsim-8441) Clocking block output mst_vif.cb.rready is not legal in this
# or another expression.
#    Time: 0 ps  Iteration: 0  Region: /vrf_axil_pkg::vrf_axil_bringup #(32, 32, 4) File: bench/lib/Pkg/../Chk/vrf_axil_bringup.svh Line: 164
# ** Warning: (vsim-8441) Clocking block output mst_vif.cb.awvalid is not legal in this
# or another expression.
#    Time: 0 ps  Iteration: 0  Region: /vrf_axil_pkg::vrf_axil_driver #(32, 32, 4, 4) File: bench/lib/Pkg/../Drv/vrf_axil_driver.svh Line: 113
# ** Warning: (vsim-8441) Clocking block output mst_vif.cb.awaddr is not legal in this
# or another expression.
#    Time: 0 ps  Iteration: 0  Region: /vrf_axil_pkg::vrf_axil_driver #(32, 32, 4, 4) File: bench/lib/Pkg/../Drv/vrf_axil_driver.svh Line: 114
# ** Warning: (vsim-8441) Clocking block output mst_vif.cb.wvalid is not legal in this
# or another expression.
#    Time: 0 ps  Iteration: 0  Region: /vrf_axil_pkg::vrf_axil_driver #(32, 32, 4, 4) File: bench/lib/Pkg/../Drv/vrf_axil_driver.svh Line: 142
# ** Warning: (vsim-8441) Clocking block output mst_vif.cb.wdata is not legal in this
# or another expression.
#    Time: 0 ps  Iteration: 0  Region: /vrf_axil_pkg::vrf_axil_driver #(32, 32, 4, 4) File: bench/lib/Pkg/../Drv/vrf_axil_driver.svh Line: 143
# ** Warning: (vsim-8441) Clocking block output mst_vif.cb.wstrb is not legal in this
# or another expression.
#    Time: 0 ps  Iteration: 0  Region: /vrf_axil_pkg::vrf_axil_driver #(32, 32, 4, 4) File: bench/lib/Pkg/../Drv/vrf_axil_driver.svh Line: 144
# ** Warning: (vsim-8441) Clocking block output mst_vif.cb.bready is not legal in this
# or another expression.
#    Time: 0 ps  Iteration: 0  Region: /vrf_axil_pkg::vrf_axil_driver #(32, 32, 4, 4) File: bench/lib/Pkg/../Drv/vrf_axil_driver.svh Line: 183
# ** Warning: (vsim-8441) Clocking block output mst_vif.cb.arvalid is not legal in this
# or another expression.
#    Time: 0 ps  Iteration: 0  Region: /vrf_axil_pkg::vrf_axil_driver #(32, 32, 4, 4) File: bench/lib/Pkg/../Drv/vrf_axil_driver.svh Line: 217
# ** Warning: (vsim-8441) Clocking block output mst_vif.cb.araddr is not legal in this
# or another expression.
#    Time: 0 ps  Iteration: 0  Region: /vrf_axil_pkg::vrf_axil_driver #(32, 32, 4, 4) File: bench/lib/Pkg/../Drv/vrf_axil_driver.svh Line: 218
# ** Warning: (vsim-8441) Clocking block output mst_vif.cb.rready is not legal in this
# or another expression.
#    Time: 0 ps  Iteration: 0  Region: /vrf_axil_pkg::vrf_axil_driver #(32, 32, 4, 4) File: bench/lib/Pkg/../Drv/vrf_axil_driver.svh Line: 253
# run -all
# ================================================================
#  VRF_AXI4L 库自测用例 : tb_vrf_axil_demo
#  随机种子 : 318257127  (可用 +seed=318257127 复现)
# ================================================================
# [75000][VRF_AXIL] 环境连接完成：DUT=REF_SLAVE，寄存器数=7
# ================= 信号连通性自检报告（仿真报告头） =================
# 自检信号数: 21    连接错误: 0    X/Z或未驱动: 0    恒定: 4
# --------------------------------------------------------------------
# 信号            侧别     跳变  X/Z  两侧一致  结论
# --------------------------------------------------------------------
# awvalid         驱动   是   否  是       正常
# awaddr          驱动   是   否  是       正常
# awport          驱动   是   否  是       正常
# awready         响应   是   否  是       正常
# wvalid          驱动   是   否  是       正常
# wdata           驱动   是   否  是       正常
# wstrb           驱动   是   否  是       正常
# wready          响应   是   否  是       正常
# bvalid          响应   是   否  是       正常
# bready          驱动   是   否  是       正常
# bid             响应   否   否  是       恒定未跳变
# bresp           响应   否   否  是       恒定未跳变
# arvalid         驱动   是   否  是       正常
# araddr          驱动   是   否  是       正常
# arport          驱动   是   否  是       正常
# arready         响应   是   否  是       正常
# rvalid          响应   是   否  是       正常
# rready          驱动   是   否  是       正常
# rdata           响应   是   否  是       正常
# rresp           响应   否   否  是       恒定未跳变
# rid             响应   否   否  是       恒定未跳变
# --------------------------------------------------------------------
# 本轮不纳入验证的信号（DVP 输入 / AXI-Stream 输出，按开发计划边界）：
#   pclk prst_n pdin pvref phref axis_tready axis_tvalid axis_tdata axis_tstrb axis_tkeep axis_tlast 
# ====================================================================
# 
# [635000][VRF_AXIL] 测试环境已启动：vrf_axil_demo
# 
# ================= VRF_AXIL 验证结论 =================
# 测试用例     : vrf_axil_demo
# 随机种子     : 318257127
# 发起事务数   : 285
# 参与比对检查 : 285    通过: 285    失败: 0    跳过: 0
# 断言检查次数 : 4847    失败: 0
# vrf_axil_cg 功能覆盖率 = 70.63%  (采样 285 次)
# 整体覆盖率   : 70.63%
# SIMULATION PASSED: 检查 285 项, 失败 0 项, 断言失败 0 项
# ====================================================
# ================================================================
#  库自测结论 : PASSED
#  总检查项   : 事务比对 285 + 协议断言 4847 + 连通性自检 21 = 5153
# ================================================================
# SIMULATION PASSED
# ** Note: $finish    : bench/tb/tb_vrf_axil_demo.sv(238)
#    Time: 11735 ns  Iteration: 2  Instance: /tb_vrf_axil_demo
# End time: 20:25:53 on Sep 15,2026, Elapsed time: 0:00:03
# Errors: 0, Warnings: 11
