# vsim -c -do "run -all; quit -f" -l log/regression/seed_2/tb_dvp2ax_stream.log work.tb_dvp2ax_stream "+seed=2" "+log_dir=log/regression/seed_2" 
# Start time: 20:21:50 on Sep 15,2026
# ** Note: (vsim-8009) Loading existing optimized design _opt
# //  ModelSim SE-64 2020.4 Oct 13 2020
# //
# //  Copyright 1991-2020 Mentor Graphics Corporation
# //  All Rights Reserved.
# //
# //  ModelSim SE-64 and its associated documentation contain trade
# //  secrets and commercial or financial information that are the property of
# //  Mentor Graphics Corporation and are privileged, confidential,
# //  and exempt from disclosure under the Freedom of Information Act,
# //  5 U.S.C. Section 552. Furthermore, this information
# //  is prohibited from disclosure under the Trade Secrets Act,
# //  18 U.S.C. Section 1905.
# //
# Loading sv_std.std
# Loading work.vrf_axil_mst_if(fast)
# Loading work.vrf_axil_slv_if(fast)
# Loading work.vrf_axil_mnt_if(fast)
# Loading work.vrf_axil_pkg(fast)
# Loading work.DVP2axi_stream_v_unit(fast)
# Loading work.tb_dvp2ax_stream(fast)
# ** Warning: (vsim-8441) Clocking block output mst_vif.cb.bready is not legal in this
# or another expression.
#    Time: 0 ps  Iteration: 0  Region: /vrf_axil_pkg::vrf_axil_bringup #(32, 32, 4) File: bench/lib/Pkg/../Chk/vrf_axil_bringup.svh Line: 124
# ** Warning: (vsim-8441) Clocking block output mst_vif.cb.rready is not legal in this
# or another expression.
#    Time: 0 ps  Iteration: 0  Region: /vrf_axil_pkg::vrf_axil_bringup #(32, 32, 4) File: bench/lib/Pkg/../Chk/vrf_axil_bringup.svh Line: 157
# ** Warning: (vsim-8441) Clocking block output mst_vif.cb.awvalid is not legal in this
# or another expression.
#    Time: 0 ps  Iteration: 0  Region: /vrf_axil_pkg::vrf_axil_driver #(32, 32, 4, 4) File: bench/lib/Pkg/../Drv/vrf_axil_driver.svh Line: 113
# ** Warning: (vsim-8441) Clocking block output mst_vif.cb.awaddr is not legal in this
# or another expression.
#    Time: 0 ps  Iteration: 0  Region: /vrf_axil_pkg::vrf_axil_driver #(32, 32, 4, 4) File: bench/lib/Pkg/../Drv/vrf_axil_driver.svh Line: 114
# ** Warning: (vsim-8441) Clocking block output mst_vif.cb.wvalid is not legal in this
# or another expression.
#    Time: 0 ps  Iteration: 0  Region: /vrf_axil_pkg::vrf_axil_driver #(32, 32, 4, 4) File: bench/lib/Pkg/../Drv/vrf_axil_driver.svh Line: 142
# ** Warning: (vsim-8441) Clocking block output mst_vif.cb.wdata is not legal in this
# or another expression.
#    Time: 0 ps  Iteration: 0  Region: /vrf_axil_pkg::vrf_axil_driver #(32, 32, 4, 4) File: bench/lib/Pkg/../Drv/vrf_axil_driver.svh Line: 143
# ** Warning: (vsim-8441) Clocking block output mst_vif.cb.wstrb is not legal in this
# or another expression.
#    Time: 0 ps  Iteration: 0  Region: /vrf_axil_pkg::vrf_axil_driver #(32, 32, 4, 4) File: bench/lib/Pkg/../Drv/vrf_axil_driver.svh Line: 144
# ** Warning: (vsim-8441) Clocking block output mst_vif.cb.bready is not legal in this
# or another expression.
#    Time: 0 ps  Iteration: 0  Region: /vrf_axil_pkg::vrf_axil_driver #(32, 32, 4, 4) File: bench/lib/Pkg/../Drv/vrf_axil_driver.svh Line: 183
# ** Warning: (vsim-8441) Clocking block output mst_vif.cb.arvalid is not legal in this
# or another expression.
#    Time: 0 ps  Iteration: 0  Region: /vrf_axil_pkg::vrf_axil_driver #(32, 32, 4, 4) File: bench/lib/Pkg/../Drv/vrf_axil_driver.svh Line: 217
# ** Warning: (vsim-8441) Clocking block output mst_vif.cb.araddr is not legal in this
# or another expression.
#    Time: 0 ps  Iteration: 0  Region: /vrf_axil_pkg::vrf_axil_driver #(32, 32, 4, 4) File: bench/lib/Pkg/../Drv/vrf_axil_driver.svh Line: 218
# ** Warning: (vsim-8441) Clocking block output mst_vif.cb.rready is not legal in this
# or another expression.
#    Time: 0 ps  Iteration: 0  Region: /vrf_axil_pkg::vrf_axil_driver #(32, 32, 4, 4) File: bench/lib/Pkg/../Drv/vrf_axil_driver.svh Line: 253
# run -all
# ================================================================
#  VRF_AXI4L 接入示例 : tb_dvp2ax_stream
#  被测对象 : RTL/DVP2axi_stream.v 的 AXI4-Lite 寄存器块
#  随机种子 : 2  (可用 +seed=2 复现)
# ================================================================
# [75000][VRF_AXIL] 环境连接完成：DUT=DVP2AXI，寄存器数=23
# ================= 信号连通性自检报告（仿真报告头） =================
# 自检信号数: 21    连接错误: 0    X/Z或未驱动: 0    恒定: 7
# --------------------------------------------------------------------
# 信号            侧别     跳变  X/Z  两侧一致  结论
# --------------------------------------------------------------------
# awvalid         驱动   是   否  是       正常
# awaddr          驱动   是   否  是       正常
# awport          驱动   是   否  是       正常
# awready         响应   否   否  是       恒定未跳变
# wvalid          驱动   是   否  是       正常
# wdata           驱动   是   否  是       正常
# wstrb           驱动   是   否  是       正常
# wready          响应   否   否  是       恒定未跳变
# bvalid          响应   是   否  是       正常
# bready          驱动   是   否  是       正常
# bid             响应   否   否  是       恒定未跳变
# bresp           响应   否   否  是       恒定未跳变
# arvalid         驱动   是   否  是       正常
# araddr          驱动   是   否  是       正常
# arport          驱动   是   否  是       正常
# arready         响应   否   否  是       恒定未跳变
# rvalid          响应   是   否  是       正常
# rready          驱动   是   否  是       正常
# rdata           响应   是   否  是       正常
# rresp           响应   否   否  是       恒定未跳变
# rid             响应   否   否  是       恒定未跳变
# --------------------------------------------------------------------
# 本轮不纳入验证的信号（DVP 输入 / AXI-Stream 输出，按开发计划边界）：
#   pclk prst_n pdin pvref phref axis_tready axis_tvalid axis_tdata axis_tstrb axis_tkeep axis_tlast 
# ====================================================================
# 
# [515000][VRF_AXIL] 测试环境已启动：tb_dvp2ax_stream
# [515000][TB] 定向：复位默认值回读
# [1485000][TB] 定向：R/W 寄存器写入回读
# [2375000][TB] 定向：wstrb 字节使能
# [2815000][TB] 定向：CTRL 自清零与写动作
# [3145000][TB] 定向：内部事件注入
# [3605000][TB] 定向：W1C 清除
# [3785000][TB] 定向：SOFT_RST / CLR_CNT 行为对比
# [4395000][TB] 定向：只读寄存器写保护
# [5015000][TB] 定向：未映射/保留地址
# [5305000][TB] 定向：B/R 通道反压
# [5505000][TB] 定向：AW/W 分离握手
# [5735000][TB] 定向：读写通道并发
# [5835000][TB] 随机回归：400 笔受约束随机事务
# [19605000][TB] 定向：B 通道事务期间异步复位
# 
# ================= VRF_AXIL 验证结论 =================
# 测试用例     : tb_dvp2ax_stream
# 随机种子     : 2
# 发起事务数   : 540
# 参与比对检查 : 539    通过: 539    失败: 0    跳过: 1
# 断言检查次数 : 6857    失败: 0
# vrf_axil_cg 功能覆盖率 = 70.63%  (采样 539 次)
# 整体覆盖率   : 70.63%
# SIMULATION PASSED: 检查 539 项, 失败 0 项, 断言失败 0 项
# ====================================================
# ================================================================
#  DVP2axi_stream 寄存器块验证结论 : PASSED
#  总检查项 : 事务比对 539 + 协议断言 6857 + 连通性自检 21 = 7417
# ================================================================
# SIMULATION PASSED
# ** Note: $finish    : bench/tb/tb_dvp2ax_stream.sv(454)
#    Time: 20865 ns  Iteration: 2  Instance: /tb_dvp2ax_stream
# End time: 20:21:52 on Sep 15,2026, Elapsed time: 0:00:02
# Errors: 0, Warnings: 11
